X--Trace 1::[CH1],Y--Trace 1::[CH1],,X--Trace 2::[CH2],Y--Trace 2::[CH2]
-0.0015763,4.440132911100122,,-0.0015763,1.006044437535529
-0.00157623,4.440132911100122,,-0.00157623,0.9836937201252497
-0.00157616,4.4433384227740405,,-0.00157616,0.9868866797552897
-0.00157609,4.440132911100122,,-0.00157609,0.9900796393853295
-0.00157602,4.4337218877522835,,-0.00157602,0.9868866797552897
-0.00157595,4.4433384227740405,,-0.00157595,0.9932725990153695
-0.00157588,4.44654393444796,,-0.00157588,0.9932725990153695
-0.0015758100000000002,4.452954957795797,,-0.0015758100000000002,0.9964655586454094
-0.0015757400000000002,4.452954957795797,,-0.0015757400000000002,0.9868866797552897
-0.0015756700000000002,4.440132911100122,,-0.0015756700000000002,0.9900796393853295
-0.0015756000000000001,4.430516376078364,,-0.0015756000000000001,0.9741148412351299
-0.0015755300000000001,4.4433384227740405,,-0.0015755300000000001,0.9805007604952097
-0.00157546,4.452954957795797,,-0.00157546,0.9868866797552897
-0.00157539,4.452954957795797,,-0.00157539,0.9964655586454094
-0.00157532,4.456160469469717,,-0.00157532,0.9932725990153695
-0.00157525,4.44654393444796,,-0.00157525,0.9900796393853295
-0.00157518,4.436927399426202,,-0.00157518,0.9836937201252497
-0.00157511,4.4433384227740405,,-0.00157511,0.9868866797552897
-0.00157504,4.4337218877522835,,-0.00157504,0.9868866797552897
-0.0015749700000000002,4.44654393444796,,-0.0015749700000000002,0.9773078008651698
-0.0015749000000000002,4.462571492817555,,-0.0015749000000000002,0.9836937201252497
-0.0015748300000000002,4.449749446121879,,-0.0015748300000000002,0.9900796393853295
-0.0015747600000000001,4.456160469469717,,-0.0015747600000000001,0.9836937201252497
-0.0015746900000000001,4.459365981143636,,-0.0015746900000000001,0.9868866797552897
-0.00157462,4.452954957795797,,-0.00157462,0.9741148412351299
-0.00157455,4.440132911100122,,-0.00157455,0.9836937201252497
-0.00157448,4.449749446121879,,-0.00157448,0.9613430027149702
-0.00157441,4.44654393444796,,-0.00157441,0.9868866797552897
-0.00157434,4.449749446121879,,-0.00157434,0.9773078008651698
-0.00157427,4.449749446121879,,-0.00157427,0.9836937201252497
-0.0015742,4.462571492817555,,-0.0015742,0.96453596234501
-0.0015741300000000002,4.452954957795797,,-0.0015741300000000002,0.97092188160509
-0.0015740600000000002,4.452954957795797,,-0.0015740600000000002,0.97092188160509
-0.0015739900000000002,4.44654393444796,,-0.0015739900000000002,0.97092188160509
-0.0015739200000000001,4.430516376078364,,-0.0015739200000000001,0.9773078008651698
-0.0015738500000000001,4.427310864404445,,-0.0015738500000000001,0.9805007604952097
-0.00157378,4.436927399426202,,-0.00157378,0.96772892197505
-0.00157371,4.459365981143636,,-0.00157371,0.9868866797552897
-0.00157364,4.465777004491474,,-0.00157364,0.96772892197505
-0.00157357,4.465777004491474,,-0.00157357,0.96772892197505
-0.0015735,4.456160469469717,,-0.0015735,0.96453596234501
-0.00157343,4.44654393444796,,-0.00157343,0.96772892197505
-0.00157336,4.449749446121879,,-0.00157336,0.9581500430849302
-0.0015732900000000002,4.4689825161653935,,-0.0015732900000000002,0.9741148412351299
-0.0015732200000000002,4.459365981143636,,-0.0015732200000000002,0.96453596234501
-0.0015731500000000002,4.449749446121879,,-0.0015731500000000002,0.97092188160509
-0.0015730800000000001,4.44654393444796,,-0.0015730800000000001,0.9517641238248503
-0.0015730100000000001,4.4433384227740405,,-0.0015730100000000001,0.96453596234501
-0.00157294,4.4433384227740405,,-0.00157294,0.9613430027149702
-0.00157287,4.440132911100122,,-0.00157287,0.96453596234501
-0.0015728,4.449749446121879,,-0.0015728,0.9549570834548903
-0.00157273,4.440132911100122,,-0.00157273,0.96453596234501
-0.00157266,4.440132911100122,,-0.00157266,0.9613430027149702
-0.00157259,4.459365981143636,,-0.00157259,0.97092188160509
-0.00157252,4.459365981143636,,-0.00157252,0.9581500430849302
-0.0015724500000000002,4.440132911100122,,-0.0015724500000000002,0.9581500430849302
-0.0015723800000000002,4.459365981143636,,-0.0015723800000000002,0.9549570834548903
-0.0015723100000000002,4.436927399426202,,-0.0015723100000000002,0.9421852449347305
-0.0015722400000000001,4.449749446121879,,-0.0015722400000000001,0.9517641238248503
-0.0015721700000000001,4.452954957795797,,-0.0015721700000000001,0.9581500430849302
-0.0015721,4.4433384227740405,,-0.0015721,0.9517641238248503
-0.00157203,4.452954957795797,,-0.00157203,0.96453596234501
-0.00157196,4.449749446121879,,-0.00157196,0.9581500430849302
-0.00157189,4.4433384227740405,,-0.00157189,0.96453596234501
-0.00157182,4.440132911100122,,-0.00157182,0.9581500430849302
-0.00157175,4.456160469469717,,-0.00157175,0.96453596234501
-0.00157168,4.449749446121879,,-0.00157168,0.96453596234501
-0.0015716100000000002,4.456160469469717,,-0.0015716100000000002,0.9613430027149702
-0.0015715400000000002,4.44654393444796,,-0.0015715400000000002,0.9421852449347305
-0.0015714700000000002,4.459365981143636,,-0.0015714700000000002,0.9453782045647705
-0.0015714000000000001,4.427310864404445,,-0.0015714000000000001,0.9453782045647705
-0.0015713300000000001,4.44654393444796,,-0.0015713300000000001,0.9326063660446108
-0.00157126,4.456160469469717,,-0.00157126,0.9581500430849302
-0.00157119,4.459365981143636,,-0.00157119,0.9421852449347305
-0.00157112,4.449749446121879,,-0.00157112,0.9581500430849302
-0.00157105,4.440132911100122,,-0.00157105,0.9517641238248503
-0.00157098,4.44654393444796,,-0.00157098,0.9549570834548903
-0.00157091,4.456160469469717,,-0.00157091,0.9326063660446108
-0.00157084,4.4433384227740405,,-0.00157084,0.9389922853046906
-0.0015707700000000002,4.456160469469717,,-0.0015707700000000002,0.9421852449347305
-0.0015707000000000002,4.4689825161653935,,-0.0015707000000000002,0.9485711641948105
-0.0015706300000000002,4.459365981143636,,-0.0015706300000000002,0.9421852449347305
-0.0015705600000000001,4.440132911100122,,-0.0015705600000000001,0.9262204467845309
-0.0015704900000000001,4.44654393444796,,-0.0015704900000000001,0.9453782045647705
-0.00157042,4.4433384227740405,,-0.00157042,0.9421852449347305
-0.00157035,4.459365981143636,,-0.00157035,0.9389922853046906
-0.00157028,4.449749446121879,,-0.00157028,0.9357993256746507
-0.00157021,4.449749446121879,,-0.00157021,0.9421852449347305
-0.00157014,4.436927399426202,,-0.00157014,0.9262204467845309
-0.00157007,4.440132911100122,,-0.00157007,0.9453782045647705
-0.00157,4.44654393444796,,-0.00157,0.9294134064145708
-0.00156993,4.449749446121879,,-0.00156993,0.9421852449347305
-0.0015698600000000002,4.462571492817555,,-0.0015698600000000002,0.923027487154491
-0.0015697900000000002,4.4433384227740405,,-0.0015697900000000002,0.923027487154491
-0.0015697200000000001,4.459365981143636,,-0.0015697200000000001,0.9326063660446108
-0.0015696500000000001,4.4433384227740405,,-0.0015696500000000001,0.9326063660446108
-0.00156958,4.462571492817555,,-0.00156958,0.9326063660446108
-0.00156951,4.449749446121879,,-0.00156951,0.9357993256746507
-0.00156944,4.456160469469717,,-0.00156944,0.9262204467845309
-0.00156937,4.452954957795797,,-0.00156937,0.9453782045647705
-0.0015693,4.452954957795797,,-0.0015693,0.9038697293742514
-0.00156923,4.459365981143636,,-0.00156923,0.9326063660446108
-0.00156916,4.449749446121879,,-0.00156916,0.9357993256746507
-0.00156909,4.449749446121879,,-0.00156909,0.9357993256746507
-0.0015690200000000002,4.456160469469717,,-0.0015690200000000002,0.9326063660446108
-0.0015689500000000002,4.44654393444796,,-0.0015689500000000002,0.9294134064145708
-0.0015688800000000001,4.44654393444796,,-0.0015688800000000001,0.9357993256746507
-0.0015688100000000001,4.44654393444796,,-0.0015688100000000001,0.9326063660446108
-0.00156874,4.456160469469717,,-0.00156874,0.923027487154491
-0.00156867,4.44654393444796,,-0.00156867,0.919834527524451
-0.0015686,4.449749446121879,,-0.0015686,0.9294134064145708
-0.00156853,4.4689825161653935,,-0.00156853,0.9326063660446108
-0.00156846,4.459365981143636,,-0.00156846,0.9262204467845309
-0.00156839,4.472188027839312,,-0.00156839,0.9166415678944111
-0.00156832,4.465777004491474,,-0.00156832,0.9294134064145708
-0.00156825,4.456160469469717,,-0.00156825,0.923027487154491
-0.0015681800000000002,4.452954957795797,,-0.0015681800000000002,0.9326063660446108
-0.0015681100000000002,4.456160469469717,,-0.0015681100000000002,0.9070626890042913
-0.0015680400000000001,4.44654393444796,,-0.0015680400000000001,0.9262204467845309
-0.0015679700000000001,4.462571492817555,,-0.0015679700000000001,0.9038697293742514
-0.0015679000000000001,4.465777004491474,,-0.0015679000000000001,0.9102556486343313
-0.00156783,4.456160469469717,,-0.00156783,0.9006767697442114
-0.00156776,4.459365981143636,,-0.00156776,0.919834527524451
-0.00156769,4.462571492817555,,-0.00156769,0.919834527524451
-0.00156762,4.456160469469717,,-0.00156762,0.9102556486343313
-0.00156755,4.449749446121879,,-0.00156755,0.9006767697442114
-0.00156748,4.44654393444796,,-0.00156748,0.919834527524451
-0.0015674100000000002,4.452954957795797,,-0.0015674100000000002,0.923027487154491
-0.0015673400000000002,4.456160469469717,,-0.0015673400000000002,0.9102556486343313
-0.0015672700000000002,4.459365981143636,,-0.0015672700000000002,0.9102556486343313
-0.0015672000000000001,4.465777004491474,,-0.0015672000000000001,0.9070626890042913
-0.0015671300000000001,4.44654393444796,,-0.0015671300000000001,0.9070626890042913
-0.0015670600000000001,4.452954957795797,,-0.0015670600000000001,0.919834527524451
-0.00156699,4.456160469469717,,-0.00156699,0.9102556486343313
-0.00156692,4.462571492817555,,-0.00156692,0.9070626890042913
-0.00156685,4.4433384227740405,,-0.00156685,0.9070626890042913
-0.00156678,4.44654393444796,,-0.00156678,0.9006767697442114
-0.00156671,4.440132911100122,,-0.00156671,0.9070626890042913
-0.00156664,4.440132911100122,,-0.00156664,0.8974838101141716
-0.0015665700000000002,4.465777004491474,,-0.0015665700000000002,0.8974838101141716
-0.0015665000000000002,4.465777004491474,,-0.0015665000000000002,0.8974838101141716
-0.0015664300000000002,4.452954957795797,,-0.0015664300000000002,0.9134486082643711
-0.0015663600000000001,4.440132911100122,,-0.0015663600000000001,0.9134486082643711
-0.0015662900000000001,4.456160469469717,,-0.0015662900000000001,0.8974838101141716
-0.0015662200000000001,4.456160469469717,,-0.0015662200000000001,0.9038697293742514
-0.00156615,4.465777004491474,,-0.00156615,0.9262204467845309
-0.00156608,4.4433384227740405,,-0.00156608,0.9070626890042913
-0.00156601,4.456160469469717,,-0.00156601,0.8910978908540916
-0.00156594,4.4433384227740405,,-0.00156594,0.9038697293742514
-0.00156587,4.462571492817555,,-0.00156587,0.9006767697442114
-0.0015658,4.456160469469717,,-0.0015658,0.8783260523339319
-0.0015657300000000002,4.44654393444796,,-0.0015657300000000002,0.8910978908540916
-0.0015656600000000002,4.456160469469717,,-0.0015656600000000002,0.8783260523339319
-0.0015655900000000002,4.459365981143636,,-0.0015655900000000002,0.8974838101141716
-0.0015655200000000001,4.452954957795797,,-0.0015655200000000001,0.9166415678944111
-0.0015654500000000001,4.459365981143636,,-0.0015654500000000001,0.8847119715940118
-0.0015653800000000001,4.452954957795797,,-0.0015653800000000001,0.8783260523339319
-0.00156531,4.44654393444796,,-0.00156531,0.9038697293742514
-0.00156524,4.462571492817555,,-0.00156524,0.8942908504841316
-0.00156517,4.462571492817555,,-0.00156517,0.8879049312240517
-0.0015651,4.4433384227740405,,-0.0015651,0.8942908504841316
-0.00156503,4.465777004491474,,-0.00156503,0.8910978908540916
-0.0015649600000000002,4.44654393444796,,-0.0015649600000000002,0.8942908504841316
-0.0015648900000000002,4.452954957795797,,-0.0015648900000000002,0.8942908504841316
-0.0015648200000000002,4.459365981143636,,-0.0015648200000000002,0.8910978908540916
-0.0015647500000000002,4.462571492817555,,-0.0015647500000000002,0.8910978908540916
-0.0015646800000000002,4.440132911100122,,-0.0015646800000000002,0.8910978908540916
-0.0015646100000000001,4.452954957795797,,-0.0015646100000000001,0.8942908504841316
-0.0015645400000000001,4.456160469469717,,-0.0015645400000000001,0.8910978908540916
-0.00156447,4.449749446121879,,-0.00156447,0.875133092703892
-0.0015644,4.452954957795797,,-0.0015644,0.8815190119639719
-0.00156433,4.456160469469717,,-0.00156433,0.8942908504841316
-0.00156426,4.456160469469717,,-0.00156426,0.8910978908540916
-0.00156419,4.44654393444796,,-0.00156419,0.8655542138137722
-0.0015641200000000002,4.456160469469717,,-0.0015641200000000002,0.8783260523339319
-0.0015640500000000002,4.462571492817555,,-0.0015640500000000002,0.875133092703892
-0.0015639800000000002,4.456160469469717,,-0.0015639800000000002,0.8879049312240517
-0.0015639100000000002,4.4433384227740405,,-0.0015639100000000002,0.8783260523339319
-0.0015638400000000002,4.449749446121879,,-0.0015638400000000002,0.8815190119639719
-0.0015637700000000001,4.4433384227740405,,-0.0015637700000000001,0.8815190119639719
-0.0015637000000000001,4.4433384227740405,,-0.0015637000000000001,0.8719401330738521
-0.00156363,4.456160469469717,,-0.00156363,0.8847119715940118
-0.00156356,4.4689825161653935,,-0.00156356,0.8815190119639719
-0.00156349,4.452954957795797,,-0.00156349,0.8655542138137722
-0.00156342,4.475393539513232,,-0.00156342,0.8879049312240517
-0.0015633500000000002,4.4337218877522835,,-0.0015633500000000002,0.8910978908540916
-0.0015632800000000002,4.449749446121879,,-0.0015632800000000002,0.8719401330738521
-0.0015632100000000002,4.440132911100122,,-0.0015632100000000002,0.8623612541837322
-0.0015631400000000002,4.452954957795797,,-0.0015631400000000002,0.8719401330738521
-0.0015630700000000002,4.440132911100122,,-0.0015630700000000002,0.8655542138137722
-0.0015630000000000002,4.44654393444796,,-0.0015630000000000002,0.875133092703892
-0.0015629300000000001,4.440132911100122,,-0.0015629300000000001,0.8687471734438121
-0.0015628600000000001,4.459365981143636,,-0.0015628600000000001,0.8559753349236524
-0.00156279,4.459365981143636,,-0.00156279,0.8559753349236524
-0.00156272,4.462571492817555,,-0.00156272,0.8591682945536924
-0.00156265,4.462571492817555,,-0.00156265,0.875133092703892
-0.00156258,4.456160469469717,,-0.00156258,0.8687471734438121
-0.0015625100000000002,4.459365981143636,,-0.0015625100000000002,0.8655542138137722
-0.0015624400000000002,4.459365981143636,,-0.0015624400000000002,0.8623612541837322
-0.0015623700000000002,4.44654393444796,,-0.0015623700000000002,0.875133092703892
-0.0015623000000000002,4.452954957795797,,-0.0015623000000000002,0.8687471734438121
-0.0015622300000000002,4.452954957795797,,-0.0015622300000000002,0.8719401330738521
-0.0015621600000000002,4.4433384227740405,,-0.0015621600000000002,0.8655542138137722
-0.0015620900000000001,4.456160469469717,,-0.0015620900000000001,0.8559753349236524
-0.0015620200000000001,4.436927399426202,,-0.0015620200000000001,0.8591682945536924
-0.00156195,4.4433384227740405,,-0.00156195,0.8655542138137722
-0.00156188,4.449749446121879,,-0.00156188,0.8559753349236524
-0.00156181,4.44654393444796,,-0.00156181,0.8463964560335326
-0.00156174,4.449749446121879,,-0.00156174,0.8463964560335326
-0.0015616700000000002,4.4433384227740405,,-0.0015616700000000002,0.8591682945536924
-0.0015616000000000002,4.449749446121879,,-0.0015616000000000002,0.8687471734438121
-0.0015615300000000002,4.449749446121879,,-0.0015615300000000002,0.8687471734438121
-0.0015614600000000002,4.4433384227740405,,-0.0015614600000000002,0.8591682945536924
-0.0015613900000000002,4.449749446121879,,-0.0015613900000000002,0.8655542138137722
-0.0015613200000000002,4.44654393444796,,-0.0015613200000000002,0.8400105367734527
-0.0015612500000000001,4.4433384227740405,,-0.0015612500000000001,0.8655542138137722
-0.0015611800000000001,4.436927399426202,,-0.0015611800000000001,0.8591682945536924
-0.00156111,4.456160469469717,,-0.00156111,0.8655542138137722
-0.00156104,4.456160469469717,,-0.00156104,0.8527823752936124
-0.00156097,4.44654393444796,,-0.00156097,0.8495894156635725
-0.0015609,4.440132911100122,,-0.0015609,0.8432034964034927
-0.0015608300000000002,4.452954957795797,,-0.0015608300000000002,0.8527823752936124
-0.0015607600000000002,4.4433384227740405,,-0.0015607600000000002,0.8400105367734527
-0.0015606900000000002,4.462571492817555,,-0.0015606900000000002,0.8559753349236524
-0.0015606200000000002,4.452954957795797,,-0.0015606200000000002,0.8400105367734527
-0.0015605500000000002,4.44654393444796,,-0.0015605500000000002,0.8559753349236524
-0.0015604800000000002,4.452954957795797,,-0.0015604800000000002,0.8623612541837322
-0.0015604100000000001,4.459365981143636,,-0.0015604100000000001,0.8463964560335326
-0.0015603400000000001,4.452954957795797,,-0.0015603400000000001,0.8495894156635725
-0.00156027,4.465777004491474,,-0.00156027,0.8463964560335326
-0.0015602,4.452954957795797,,-0.0015602,0.8336246175133729
-0.00156013,4.420899841056607,,-0.00156013,0.827238698253293
-0.00156006,4.462571492817555,,-0.00156006,0.8591682945536924
-0.0015599900000000002,4.449749446121879,,-0.0015599900000000002,0.8591682945536924
-0.0015599200000000002,4.456160469469717,,-0.0015599200000000002,0.8208527789932132
-0.0015598500000000002,4.4337218877522835,,-0.0015598500000000002,0.8336246175133729
-0.0015597800000000002,4.456160469469717,,-0.0015597800000000002,0.830431657883333
-0.0015597100000000002,4.465777004491474,,-0.0015597100000000002,0.8495894156635725
-0.0015596400000000002,4.44654393444796,,-0.0015596400000000002,0.8368175771434128
-0.0015595700000000001,4.459365981143636,,-0.0015595700000000001,0.830431657883333
-0.0015595000000000001,4.44654393444796,,-0.0015595000000000001,0.8400105367734527
-0.00155943,4.452954957795797,,-0.00155943,0.8368175771434128
-0.00155936,4.456160469469717,,-0.00155936,0.8400105367734527
-0.00155929,4.4337218877522835,,-0.00155929,0.824045738623253
-0.00155922,4.452954957795797,,-0.00155922,0.827238698253293
-0.00155915,4.4433384227740405,,-0.00155915,0.824045738623253
-0.0015590800000000002,4.459365981143636,,-0.0015590800000000002,0.8208527789932132
-0.0015590100000000002,4.452954957795797,,-0.0015590100000000002,0.824045738623253
-0.0015589400000000002,4.4337218877522835,,-0.0015589400000000002,0.830431657883333
-0.0015588700000000002,4.4433384227740405,,-0.0015588700000000002,0.8368175771434128
-0.0015588000000000002,4.44654393444796,,-0.0015588000000000002,0.8208527789932132
-0.0015587300000000001,4.427310864404445,,-0.0015587300000000001,0.8208527789932132
-0.0015586600000000001,4.449749446121879,,-0.0015586600000000001,0.827238698253293
-0.00155859,4.436927399426202,,-0.00155859,0.830431657883333
-0.00155852,4.436927399426202,,-0.00155852,0.8208527789932132
-0.00155845,4.436927399426202,,-0.00155845,0.8208527789932132
-0.00155838,4.4337218877522835,,-0.00155838,0.8208527789932132
-0.00155831,4.44654393444796,,-0.00155831,0.8080809404730535
-0.00155824,4.427310864404445,,-0.00155824,0.824045738623253
-0.0015581700000000002,4.459365981143636,,-0.0015581700000000002,0.8368175771434128
-0.0015581000000000002,4.449749446121879,,-0.0015581000000000002,0.824045738623253
-0.0015580300000000002,4.462571492817555,,-0.0015580300000000002,0.8144668597331333
-0.0015579600000000002,4.44654393444796,,-0.0015579600000000002,0.824045738623253
-0.0015578900000000001,4.4433384227740405,,-0.0015578900000000001,0.830431657883333
-0.0015578200000000001,4.4433384227740405,,-0.0015578200000000001,0.824045738623253
-0.00155775,4.459365981143636,,-0.00155775,0.8080809404730535
-0.00155768,4.440132911100122,,-0.00155768,0.8208527789932132
-0.00155761,4.4433384227740405,,-0.00155761,0.8080809404730535
-0.00155754,4.452954957795797,,-0.00155754,0.8144668597331333
-0.00155747,4.449749446121879,,-0.00155747,0.8016950212129735
-0.0015574,4.452954957795797,,-0.0015574,0.8112739001030934
-0.00155733,4.452954957795797,,-0.00155733,0.824045738623253
-0.0015572600000000002,4.440132911100122,,-0.0015572600000000002,0.8112739001030934
-0.0015571900000000002,4.449749446121879,,-0.0015571900000000002,0.8144668597331333
