X--Trace 1::[CH1],Y--Trace 1::[CH1],,X--Trace 2::[CH2],Y--Trace 2::[CH2]
-0.0029873,3.7733864829249493,,-0.0029873,0.8208527789932132
-0.00298714,3.77018097125103,,-0.00298714,0.824045738623253
-0.00298698,3.7862085296206254,,-0.00298698,0.824045738623253
-0.00298682,3.7926195529684636,,-0.00298682,0.8368175771434128
-0.00298666,3.7733864829249493,,-0.00298666,0.824045738623253
-0.0029865,3.7894140412945445,,-0.0029865,0.824045738623253
-0.00298634,3.7894140412945445,,-0.00298634,0.8208527789932132
-0.00298618,3.7894140412945445,,-0.00298618,0.8080809404730535
-0.00298602,3.795825064642383,,-0.00298602,0.8144668597331333
-0.00298586,3.7830030179467062,,-0.00298586,0.8144668597331333
-0.0029857,3.7926195529684636,,-0.0029857,0.827238698253293
-0.00298554,3.811852623011978,,-0.00298554,0.8208527789932132
-0.00298538,3.7926195529684636,,-0.00298538,0.8176598193631732
-0.0029852200000000002,3.795825064642383,,-0.0029852200000000002,0.827238698253293
-0.00298506,3.7830030179467062,,-0.00298506,0.8048879808430135
-0.0029849,3.779797506272787,,-0.0029849,0.8176598193631732
-0.00298474,3.7926195529684636,,-0.00298474,0.824045738623253
-0.00298458,3.7926195529684636,,-0.00298458,0.8144668597331333
-0.00298442,3.799030576316302,,-0.00298442,0.8080809404730535
-0.00298426,3.7926195529684636,,-0.00298426,0.8112739001030934
-0.0029841,3.811852623011978,,-0.0029841,0.827238698253293
-0.00298394,3.795825064642383,,-0.00298394,0.824045738623253
-0.00298378,3.802236087990221,,-0.00298378,0.8176598193631732
-0.00298362,3.802236087990221,,-0.00298362,0.8144668597331333
-0.00298346,3.80544159966414,,-0.00298346,0.8208527789932132
-0.0029833,3.80544159966414,,-0.0029833,0.824045738623253
-0.00298314,3.7894140412945445,,-0.00298314,0.8176598193631732
-0.00298298,3.80544159966414,,-0.00298298,0.8176598193631732
-0.00298282,3.8246746697076546,,-0.00298282,0.8080809404730535
-0.00298266,3.802236087990221,,-0.00298266,0.8176598193631732
-0.0029825,3.811852623011978,,-0.0029825,0.8048879808430135
-0.00298234,3.8182636463598163,,-0.00298234,0.8176598193631732
-0.00298218,3.8214691580337354,,-0.00298218,0.8144668597331333
-0.00298202,3.8246746697076546,,-0.00298202,0.8080809404730535
-0.00298186,3.799030576316302,,-0.00298186,0.8144668597331333
-0.0029817,3.8182636463598163,,-0.0029817,0.827238698253293
-0.00298154,3.837496716403331,,-0.00298154,0.8208527789932132
-0.00298138,3.8246746697076546,,-0.00298138,0.8048879808430135
-0.00298122,3.8214691580337354,,-0.00298122,0.8144668597331333
-0.0029810600000000002,3.8182636463598163,,-0.0029810600000000002,0.7985020615829337
-0.0029809,3.8214691580337354,,-0.0029809,0.8176598193631732
-0.00298074,3.8246746697076546,,-0.00298074,0.8080809404730535
-0.00298058,3.837496716403331,,-0.00298058,0.8016950212129735
-0.00298042,3.8182636463598163,,-0.00298042,0.8144668597331333
-0.00298026,3.837496716403331,,-0.00298026,0.824045738623253
-0.0029801,3.8246746697076546,,-0.0029801,0.8208527789932132
-0.00297994,3.8246746697076546,,-0.00297994,0.8080809404730535
-0.00297978,3.831085693055493,,-0.00297978,0.8144668597331333
-0.00297962,3.8471132514250885,,-0.00297962,0.8112739001030934
-0.00297946,3.834291204729412,,-0.00297946,0.7921161423228538
-0.0029793,3.8599352981207646,,-0.0029793,0.8048879808430135
-0.00297914,3.8407022280772503,,-0.00297914,0.827238698253293
-0.00297898,3.837496716403331,,-0.00297898,0.8176598193631732
-0.00297882,3.831085693055493,,-0.00297882,0.8208527789932132
-0.00297866,3.834291204729412,,-0.00297866,0.8048879808430135
-0.0029785,3.8599352981207646,,-0.0029785,0.8016950212129735
-0.00297834,3.8471132514250885,,-0.00297834,0.8080809404730535
-0.00297818,3.8278801813815737,,-0.00297818,0.8176598193631732
-0.00297802,3.834291204729412,,-0.00297802,0.7953091019528937
-0.00297786,3.837496716403331,,-0.00297786,0.8144668597331333
-0.0029777000000000002,3.834291204729412,,-0.0029777000000000002,0.8208527789932132
-0.00297754,3.8567297864468455,,-0.00297754,0.8144668597331333
-0.00297738,3.837496716403331,,-0.00297738,0.8112739001030934
-0.00297722,3.834291204729412,,-0.00297722,0.8080809404730535
-0.00297706,3.8599352981207646,,-0.00297706,0.8080809404730535
-0.0029769,3.866346321468603,,-0.0029769,0.8176598193631732
-0.00297674,3.8535242747729264,,-0.00297674,0.7985020615829337
-0.00297658,3.8599352981207646,,-0.00297658,0.8176598193631732
-0.00297642,3.8599352981207646,,-0.00297642,0.7953091019528937
-0.00297626,3.8759628564903603,,-0.00297626,0.8144668597331333
-0.0029761,3.8567297864468455,,-0.0029761,0.8112739001030934
-0.00297594,3.866346321468603,,-0.00297594,0.8144668597331333
-0.00297578,3.8791683681642795,,-0.00297578,0.7985020615829337
-0.00297562,3.8567297864468455,,-0.00297562,0.8208527789932132
-0.00297546,3.872757344816441,,-0.00297546,0.8112739001030934
-0.0029753,3.872757344816441,,-0.0029753,0.8208527789932132
-0.00297514,3.869551833142522,,-0.00297514,0.8048879808430135
-0.00297498,3.866346321468603,,-0.00297498,0.8080809404730535
-0.00297482,3.866346321468603,,-0.00297482,0.7921161423228538
-0.00297466,3.8855793915121173,,-0.00297466,0.8016950212129735
-0.0029745,3.866346321468603,,-0.0029745,0.8048879808430135
-0.0029743400000000002,3.8759628564903603,,-0.0029743400000000002,0.8048879808430135
-0.00297418,3.8791683681642795,,-0.00297418,0.785730223062774
-0.00297402,3.872757344816441,,-0.00297402,0.7985020615829337
-0.00297386,3.8919904148599556,,-0.00297386,0.7985020615829337
-0.0029737,3.869551833142522,,-0.0029737,0.8176598193631732
-0.00297354,3.8791683681642795,,-0.00297354,0.7953091019528937
-0.00297338,3.8855793915121173,,-0.00297338,0.8016950212129735
-0.00297322,3.8823738798381986,,-0.00297322,0.8144668597331333
-0.00297306,3.872757344816441,,-0.00297306,0.8112739001030934
-0.0029729,3.8919904148599556,,-0.0029729,0.7985020615829337
-0.00297274,3.8759628564903603,,-0.00297274,0.7921161423228538
-0.00297258,3.8919904148599556,,-0.00297258,0.7953091019528937
-0.00297242,3.8791683681642795,,-0.00297242,0.785730223062774
-0.00297226,3.898401438207794,,-0.00297226,0.7953091019528937
-0.0029721,3.8759628564903603,,-0.0029721,0.8048879808430135
-0.00297194,3.8855793915121173,,-0.00297194,0.8176598193631732
-0.00297178,3.9080179732295512,,-0.00297178,0.7985020615829337
-0.00297162,3.9080179732295512,,-0.00297162,0.7985020615829337
-0.00297146,3.898401438207794,,-0.00297146,0.8016950212129735
-0.0029713,3.8759628564903603,,-0.0029713,0.8048879808430135
-0.00297114,3.901606949881713,,-0.00297114,0.8048879808430135
-0.0029709800000000002,3.898401438207794,,-0.0029709800000000002,0.785730223062774
-0.00297082,3.8919904148599556,,-0.00297082,0.7921161423228538
-0.00297066,3.9080179732295512,,-0.00297066,0.8080809404730535
-0.0029705,3.8887849031860364,,-0.0029705,0.7921161423228538
-0.00297034,3.8887849031860364,,-0.00297034,0.7921161423228538
-0.00297018,3.898401438207794,,-0.00297018,0.8112739001030934
-0.00297002,3.901606949881713,,-0.00297002,0.8176598193631732
-0.00296986,3.8951959265338747,,-0.00296986,0.8080809404730535
-0.0029697,3.904812461555632,,-0.0029697,0.7985020615829337
-0.00296954,3.9080179732295512,,-0.00296954,0.7889231826928138
-0.00296938,3.9144289965773895,,-0.00296938,0.8112739001030934
-0.00296922,3.9144289965773895,,-0.00296922,0.8080809404730535
-0.00296906,3.904812461555632,,-0.00296906,0.8048879808430135
-0.0029689,3.904812461555632,,-0.0029689,0.779344303802694
-0.00296874,3.901606949881713,,-0.00296874,0.8016950212129735
-0.00296858,3.9176345082513087,,-0.00296858,0.782537263432734
-0.0029684200000000003,3.920840019925228,,-0.0029684200000000003,0.7953091019528937
-0.00296826,3.9144289965773895,,-0.00296826,0.7953091019528937
-0.0029681,3.898401438207794,,-0.0029681,0.8016950212129735
-0.00296794,3.9240455315991465,,-0.00296794,0.7953091019528937
-0.00296778,3.9176345082513087,,-0.00296778,0.7889231826928138
-0.0029676200000000002,3.9144289965773895,,-0.0029676200000000002,0.8080809404730535
-0.00296746,3.9240455315991465,,-0.00296746,0.7953091019528937
-0.0029673,3.9304565549469848,,-0.0029673,0.7889231826928138
-0.00296714,3.9240455315991465,,-0.00296714,0.7921161423228538
-0.00296698,3.9144289965773895,,-0.00296698,0.7953091019528937
-0.0029668200000000002,3.9304565549469848,,-0.0029668200000000002,0.8048879808430135
-0.00296666,3.9240455315991465,,-0.00296666,0.7985020615829337
-0.0029665,3.9304565549469848,,-0.0029665,0.7953091019528937
-0.00296634,3.920840019925228,,-0.00296634,0.8112739001030934
-0.00296618,3.920840019925228,,-0.00296618,0.8048879808430135
-0.00296602,3.9464841133165804,,-0.00296602,0.7921161423228538
-0.0029658600000000003,3.9272510432730656,,-0.0029658600000000003,0.8080809404730535
-0.0029657,3.9304565549469848,,-0.0029657,0.782537263432734
-0.00296554,3.9272510432730656,,-0.00296554,0.8016950212129735
-0.00296538,3.9464841133165804,,-0.00296538,0.7761513441726541
-0.00296522,3.936867578294823,,-0.00296522,0.7921161423228538
-0.0029650600000000003,3.933662066620904,,-0.0029650600000000003,0.8016950212129735
-0.0029649,3.9432786016426613,,-0.0029649,0.7985020615829337
-0.00296474,3.940073089968742,,-0.00296474,0.7921161423228538
-0.00296458,3.940073089968742,,-0.00296458,0.7953091019528937
-0.00296442,3.9464841133165804,,-0.00296442,0.7921161423228538
-0.0029642600000000002,3.9593061600122565,,-0.0029642600000000002,0.785730223062774
-0.0029641,3.936867578294823,,-0.0029641,0.785730223062774
-0.00296394,3.9528951366644187,,-0.00296394,0.779344303802694
-0.00296378,3.956100648338338,,-0.00296378,0.7921161423228538
-0.00296362,3.9593061600122565,,-0.00296362,0.8048879808430135
-0.0029634600000000002,3.9496896249904996,,-0.0029634600000000002,0.7953091019528937
-0.0029633000000000003,3.965717183360095,,-0.0029633000000000003,0.7921161423228538
-0.00296314,3.965717183360095,,-0.00296314,0.7889231826928138
-0.00296298,3.956100648338338,,-0.00296298,0.785730223062774
-0.00296282,3.9625116716861757,,-0.00296282,0.779344303802694
-0.00296266,3.9625116716861757,,-0.00296266,0.8016950212129735
-0.0029625000000000003,3.9528951366644187,,-0.0029625000000000003,0.8048879808430135
-0.00296234,3.965717183360095,,-0.00296234,0.7953091019528937
-0.00296218,3.9625116716861757,,-0.00296218,0.785730223062774
-0.00296202,3.972128206707933,,-0.00296202,0.7921161423228538
-0.00296186,3.965717183360095,,-0.00296186,0.7889231826928138
-0.0029617000000000003,3.956100648338338,,-0.0029617000000000003,0.7761513441726541
-0.00296154,3.9496896249904996,,-0.00296154,0.7761513441726541
-0.00296138,3.9528951366644187,,-0.00296138,0.7921161423228538
-0.00296122,3.9785392300557714,,-0.00296122,0.782537263432734
-0.00296106,3.9625116716861757,,-0.00296106,0.779344303802694
-0.0029609000000000003,3.9849502534036096,,-0.0029609000000000003,0.782537263432734
-0.0029607400000000003,3.9753337183818522,,-0.0029607400000000003,0.779344303802694
-0.00296058,3.9817447417296905,,-0.00296058,0.779344303802694
-0.00296042,3.9753337183818522,,-0.00296042,0.779344303802694
-0.00296026,3.972128206707933,,-0.00296026,0.7921161423228538
-0.0029601000000000002,3.972128206707933,,-0.0029601000000000002,0.7665724652825343
-0.0029599400000000003,3.9785392300557714,,-0.0029599400000000003,0.7665724652825343
-0.00295978,3.9849502534036096,,-0.00295978,0.7889231826928138
-0.00295962,3.972128206707933,,-0.00295962,0.7921161423228538
-0.00295946,3.968922695034014,,-0.00295946,0.7953091019528937
-0.0029593,3.972128206707933,,-0.0029593,0.7921161423228538
-0.0029591400000000003,3.9849502534036096,,-0.0029591400000000003,0.7889231826928138
-0.00295898,3.9753337183818522,,-0.00295898,0.779344303802694
-0.00295882,3.988155765077529,,-0.00295882,0.785730223062774
-0.00295866,3.972128206707933,,-0.00295866,0.779344303802694
-0.0029585,3.988155765077529,,-0.0029585,0.779344303802694
-0.0029583400000000003,3.991361276751448,,-0.0029583400000000003,0.7921161423228538
-0.0029581800000000004,3.991361276751448,,-0.0029581800000000004,0.7729583845426142
-0.00295802,3.9753337183818522,,-0.00295802,0.779344303802694
-0.00295786,3.9849502534036096,,-0.00295786,0.782537263432734
-0.0029577,3.9785392300557714,,-0.0029577,0.7729583845426142
-0.0029575400000000003,3.9977723000992857,,-0.0029575400000000003,0.7633795056524944
-0.0029573800000000003,3.988155765077529,,-0.0029573800000000003,0.7761513441726541
-0.00295722,3.991361276751448,,-0.00295722,0.7729583845426142
-0.00295706,3.9849502534036096,,-0.00295706,0.7697654249125743
-0.0029569,4.000977811773205,,-0.0029569,0.7985020615829337
-0.0029567400000000002,3.9817447417296905,,-0.0029567400000000002,0.7761513441726541
-0.0029565800000000003,3.9977723000992857,,-0.0029565800000000003,0.7697654249125743
-0.00295642,4.013799858468881,,-0.00295642,0.779344303802694
-0.00295626,3.9977723000992857,,-0.00295626,0.7729583845426142
-0.0029561,3.9945667884253666,,-0.0029561,0.785730223062774
-0.00295594,3.991361276751448,,-0.00295594,0.7761513441726541
-0.0029557800000000003,3.9849502534036096,,-0.0029557800000000003,0.7633795056524944
-0.00295562,3.9977723000992857,,-0.00295562,0.7697654249125743
-0.00295546,4.007388835121043,,-0.00295546,0.782537263432734
-0.0029553,4.0170053701428,,-0.0029553,0.779344303802694
-0.00295514,3.9977723000992857,,-0.00295514,0.7474147075022948
-0.0029549800000000003,4.000977811773205,,-0.0029549800000000003,0.7729583845426142
-0.0029548200000000004,4.010594346794963,,-0.0029548200000000004,0.785730223062774
-0.00295466,4.013799858468881,,-0.00295466,0.7889231826928138
-0.0029545,4.010594346794963,,-0.0029545,0.7665724652825343
-0.00295434,4.007388835121043,,-0.00295434,0.779344303802694
-0.0029541800000000003,4.0041833234471245,,-0.0029541800000000003,0.7761513441726541
-0.0029540200000000003,3.991361276751448,,-0.0029540200000000003,0.779344303802694
-0.00295386,4.0041833234471245,,-0.00295386,0.7729583845426142
-0.0029537,4.02021088181672,,-0.0029537,0.7633795056524944
-0.00295354,4.0041833234471245,,-0.00295354,0.7729583845426142
-0.0029533800000000002,4.023416393490638,,-0.0029533800000000002,0.7729583845426142
-0.0029532200000000003,4.007388835121043,,-0.0029532200000000003,0.7665724652825343
-0.0029530600000000004,4.026621905164558,,-0.0029530600000000004,0.779344303802694
-0.0029529,4.010594346794963,,-0.0029529,0.7697654249125743
-0.00295274,4.026621905164558,,-0.00295274,0.779344303802694
-0.0029525800000000002,4.029827416838477,,-0.0029525800000000002,0.7761513441726541
-0.0029524200000000003,4.02021088181672,,-0.0029524200000000003,0.782537263432734
-0.0029522600000000004,4.0490604868819915,,-0.0029522600000000004,0.7729583845426142
-0.0029521,4.02021088181672,,-0.0029521,0.7921161423228538
-0.00295194,4.02021088181672,,-0.00295194,0.7697654249125743
-0.00295178,4.033032928512396,,-0.00295178,0.782537263432734
-0.0029516200000000003,4.033032928512396,,-0.0029516200000000003,0.7697654249125743
-0.0029514600000000004,4.026621905164558,,-0.0029514600000000004,0.7506076671323346
-0.0029513,4.033032928512396,,-0.0029513,0.7633795056524944
-0.00295114,4.02021088181672,,-0.00295114,0.7601865460224545
-0.00295098,4.036238440186315,,-0.00295098,0.7729583845426142
-0.0029508200000000003,4.033032928512396,,-0.0029508200000000003,0.7697654249125743
-0.0029506600000000003,4.026621905164558,,-0.0029506600000000003,0.7729583845426142
-0.0029505,4.02021088181672,,-0.0029505,0.7665724652825343
-0.00295034,4.013799858468881,,-0.00295034,0.7697654249125743
-0.00295018,4.029827416838477,,-0.00295018,0.7697654249125743
-0.0029500200000000002,4.0394439518602345,,-0.0029500200000000002,0.7633795056524944
-0.0029498600000000003,4.042649463534153,,-0.0029498600000000003,0.7601865460224545
-0.0029497000000000004,4.0170053701428,,-0.0029497000000000004,0.7761513441726541
-0.00294954,4.0170053701428,,-0.00294954,0.7633795056524944
-0.00294938,4.036238440186315,,-0.00294938,0.7569935863924145
-0.0029492200000000002,4.033032928512396,,-0.0029492200000000002,0.7601865460224545
-0.0029490600000000003,4.045854975208073,,-0.0029490600000000003,0.7729583845426142
-0.0029489000000000004,4.065088045251587,,-0.0029489000000000004,0.7569935863924145
-0.00294874,4.036238440186315,,-0.00294874,0.7665724652825343
-0.00294858,4.042649463534153,,-0.00294858,0.779344303802694
-0.00294842,4.036238440186315,,-0.00294842,0.7538006267623746
-0.0029482600000000003,4.036238440186315,,-0.0029482600000000003,0.7665724652825343
-0.0029481000000000004,4.0586770219037485,,-0.0029481000000000004,0.7729583845426142
-0.0029479400000000005,4.042649463534153,,-0.0029479400000000005,0.7665724652825343
-0.00294778,4.061882533577668,,-0.00294778,0.7506076671323346
-0.00294762,4.036238440186315,,-0.00294762,0.7729583845426142
-0.0029474600000000003,4.05547151022983,,-0.0029474600000000003,0.7729583845426142
-0.0029473000000000004,4.0586770219037485,,-0.0029473000000000004,0.7697654249125743
-0.0029471400000000004,4.045854975208073,,-0.0029471400000000004,0.7601865460224545
-0.00294698,4.05547151022983,,-0.00294698,0.7601865460224545
-0.00294682,4.045854975208073,,-0.00294682,0.7633795056524944
-0.0029466600000000003,4.061882533577668,,-0.0029466600000000003,0.7633795056524944
-0.0029465000000000003,4.071499068599425,,-0.0029465000000000003,0.7442217478722548
-0.0029463400000000004,4.05547151022983,,-0.0029463400000000004,0.7633795056524944
-0.00294618,4.071499068599425,,-0.00294618,0.7506076671323346
-0.00294602,4.0586770219037485,,-0.00294602,0.7601865460224545
-0.0029458600000000002,4.077910091947263,,-0.0029458600000000002,0.7474147075022948
-0.0029457000000000003,4.061882533577668,,-0.0029457000000000003,0.7665724652825343
-0.0029455400000000004,4.077910091947263,,-0.0029455400000000004,0.7538006267623746
-0.00294538,4.0586770219037485,,-0.00294538,0.7538006267623746
-0.00294522,4.074704580273345,,-0.00294522,0.7601865460224545
-0.00294506,4.068293556925506,,-0.00294506,0.7601865460224545
-0.0029449000000000003,4.065088045251587,,-0.0029449000000000003,0.7506076671323346
-0.0029447400000000004,4.077910091947263,,-0.0029447400000000004,0.734642868982135
-0.0029445800000000005,4.068293556925506,,-0.0029445800000000005,0.7665724652825343
-0.00294442,4.068293556925506,,-0.00294442,0.7506076671323346
-0.00294426,4.084321115295102,,-0.00294426,0.7442217478722548
-0.0029441000000000003,4.084321115295102,,-0.0029441000000000003,0.7538006267623746
-0.0029439400000000004,4.084321115295102,,-0.0029439400000000004,0.7506076671323346
-0.0029437800000000004,4.074704580273345,,-0.0029437800000000004,0.7474147075022948
-0.00294362,4.065088045251587,,-0.00294362,0.7506076671323346
-0.00294346,4.074704580273345,,-0.00294346,0.7538006267623746
-0.0029433000000000003,4.0939376503168585,,-0.0029433000000000003,0.7506076671323346
-0.0029431400000000003,4.071499068599425,,-0.0029431400000000003,0.7378358286121749
-0.0029429800000000004,4.077910091947263,,-0.0029429800000000004,0.7538006267623746
-0.0029428200000000005,4.084321115295102,,-0.0029428200000000005,0.7474147075022948
-0.00294266,4.081115603621183,,-0.00294266,0.7442217478722548
-0.0029425000000000002,4.0939376503168585,,-0.0029425000000000002,0.7474147075022948
-0.0029423400000000003,4.077910091947263,,-0.0029423400000000003,0.7410287882422149
-0.0029421800000000004,4.0939376503168585,,-0.0029421800000000004,0.7633795056524944
-0.0029420200000000005,4.074704580273345,,-0.0029420200000000005,0.7474147075022948
-0.00294186,4.09073213864294,,-0.00294186,0.7410287882422149
-0.0029417000000000002,4.100348673664697,,-0.0029417000000000002,0.734642868982135
-0.0029415400000000003,4.084321115295102,,-0.0029415400000000003,0.7378358286121749
-0.0029413800000000004,4.0939376503168585,,-0.0029413800000000004,0.7442217478722548
-0.0029412200000000005,4.09073213864294,,-0.0029412200000000005,0.7442217478722548
-0.00294106,4.08752662696902,,-0.00294106,0.7442217478722548
-0.0029409,4.106759697012535,,-0.0029409,0.7442217478722548
-0.0029407400000000003,4.084321115295102,,-0.0029407400000000003,0.7378358286121749
-0.0029405800000000004,4.084321115295102,,-0.0029405800000000004,0.7314499093520951
